<Qucs Dataset 0.0.19>
<indep time 100>
  +0.00000000000000000000e+00
  +2.02020202020202020027e-03
  +4.04040404040404040054e-03
  +6.06060606060606060080e-03
  +8.08080808080808080107e-03
  +1.01010101010101001340e-02
  +1.21212121212121212016e-02
  +1.41414141414141422692e-02
  +1.61616161616161616021e-02
  +1.81818181818181809350e-02
  +2.02020202020202002680e-02
  +2.22222222222222230703e-02
  +2.42424242424242424032e-02
  +2.62626262626262617361e-02
  +2.82828282828282845385e-02
  +3.03030303030303038714e-02
  +3.23232323232323232043e-02
  +3.43434343434343425372e-02
  +3.63636363636363618701e-02
  +3.83838383838383812030e-02
  +4.04040404040404005359e-02
  +4.24242424242424268077e-02
  +4.44444444444444461406e-02
  +4.64646464646464654735e-02
  +4.84848484848484848064e-02
  +5.05050505050505041393e-02
  +5.25252525252525234722e-02
  +5.45454545454545428051e-02
  +5.65656565656565690769e-02
  +5.85858585858585884099e-02
  +6.06060606060606077428e-02
  +6.26262626262626270757e-02
  +6.46464646464646464086e-02
  +6.66666666666666657415e-02
  +6.86868686868686850744e-02
  +7.07070707070707044073e-02
  +7.27272727272727237402e-02
  +7.47474747474747430731e-02
  +7.67676767676767624060e-02
  +7.87878787878787817389e-02
  +8.08080808080808010718e-02
  +8.28282828282828342825e-02
  +8.48484848484848536154e-02
  +8.68686868686868729483e-02
  +8.88888888888888922812e-02
  +9.09090909090909116141e-02
  +9.29292929292929309470e-02
  +9.49494949494949502800e-02
  +9.69696969696969696129e-02
  +9.89898989898989889458e-02
  +1.01010101010101008279e-01
  +1.03030303030303027612e-01
  +1.05050505050505046944e-01
  +1.07070707070707066277e-01
  +1.09090909090909085610e-01
  +1.11111111111111104943e-01
  +1.13131313131313138154e-01
  +1.15151515151515157487e-01
  +1.17171717171717176820e-01
  +1.19191919191919196153e-01
  +1.21212121212121215486e-01
  +1.23232323232323234818e-01
  +1.25252525252525254151e-01
  +1.27272727272727259606e-01
  +1.29292929292929292817e-01
  +1.31313131313131326028e-01
  +1.33333333333333331483e-01
  +1.35353535353535364694e-01
  +1.37373737373737370149e-01
  +1.39393939393939403359e-01
  +1.41414141414141408815e-01
  +1.43434343434343442025e-01
  +1.45454545454545447480e-01
  +1.47474747474747480691e-01
  +1.49494949494949486146e-01
  +1.51515151515151519357e-01
  +1.53535353535353524812e-01
  +1.55555555555555558023e-01
  +1.57575757575757563478e-01
  +1.59595959595959596689e-01
  +1.61616161616161602144e-01
  +1.63636363636363635354e-01
  +1.65656565656565668565e-01
  +1.67676767676767674020e-01
  +1.69696969696969707231e-01
  +1.71717171717171712686e-01
  +1.73737373737373745897e-01
  +1.75757575757575751352e-01
  +1.77777777777777784562e-01
  +1.79797979797979790018e-01
  +1.81818181818181823228e-01
  +1.83838383838383828683e-01
  +1.85858585858585861894e-01
  +1.87878787878787867349e-01
  +1.89898989898989900560e-01
  +1.91919191919191906015e-01
  +1.93939393939393939226e-01
  +1.95959595959595972436e-01
  +1.97979797979797977892e-01
  +2.00000000000000011102e-01
</indep>
<dep V1.It time>
  -1.50000000000799992537e-04
  -1.50000000000799992537e-04
  -1.50000000000800128063e-04
  -1.50000000000800290693e-04
  -1.50000000000801158055e-04
  -1.50000000000803001199e-04
  -1.50000000000807554848e-04
  -1.50000000000816363990e-04
  -1.50000000000831298875e-04
  -1.50000000000910879315e-04
  -1.50000000001674293169e-04
  -1.50000001022894456724e-04
  +2.32312729373434292968e-02
  +2.29337390866569158787e-02
  -1.50000685944880798308e-04
  +2.46346117227817691664e-02
  -1.49999654289161937727e-04
  +2.28043583829104883065e-02
  +2.34058652859979142435e-02
  -1.50001188450205150430e-04
  +2.46653432773173593440e-02
  -1.49999424349316236435e-04
  +2.20723801132705690908e-02
  +2.36882641430860158005e-02
  -1.49999870574156626097e-04
  +2.45940744174367870167e-02
  -1.49998685751344526182e-04
  +2.01250502390106604522e-02
  +2.38889876571220308166e-02
  -1.49997185246252034063e-04
  +2.45083107930113806849e-02
  -1.49995646685791223559e-04
  -1.50004253029759846436e-04
  +2.40435236284070527613e-02
  -1.50004689803702408093e-04
  +2.44136843988607514511e-02
  -1.49998062792714939194e-04
  -1.49997363587418413048e-04
  +2.41683025998722586514e-02
  -1.49998271791258237394e-04
  +2.43082738272117314382e-02
  -1.50000095179837007655e-04
  -1.49998325561369430818e-04
  +2.42719177923983384093e-02
  -1.50001945825802175801e-04
  +2.41894942451660946436e-02
  -1.50001876627640570727e-04
  -1.50002571751556491213e-04
  +2.43599972993719625369e-02
  -1.50004292081513728938e-04
  +2.40527169724157677266e-02
  -1.50003143383285638931e-04
  -1.50001899965724938340e-04
  +2.44355636496099599964e-02
  -1.49994300541867001684e-04
  +2.38917430857880433437e-02
  -1.49994567703382378470e-04
  -1.50008145626353374185e-04
  +2.45011387397170918301e-02
  -1.50005617603432111736e-04
  +2.36952045430753530098e-02
  -1.49998605436746048529e-04
  -1.50004706946729125241e-04
  +2.45580592605991812616e-02
  -1.49998990377572550279e-04
  +2.34431871076420869637e-02
  +2.23332696374560109309e-02
  -1.49993727272058750182e-04
  +2.46074983986941664416e-02
  -1.49994419829575537529e-04
  +2.30969348702281668251e-02
  +2.31528595169473543069e-02
  -1.49995435120150701546e-04
  +2.46502513375361637094e-02
  -1.49997094144451397326e-04
  +2.25717746288666247512e-02
  +2.35283875038502440780e-02
  -1.49997032314942843265e-04
  +2.46428283643165407790e-02
  -1.49996832185382024914e-04
  +2.16181433219441582194e-02
  +2.37728757422806316613e-02
  -1.49997013282997769534e-04
  +2.45619553774477639152e-02
  -1.50002019760088793014e-04
  -1.49995021609177625740e-04
  +2.39529350256105291739e-02
  -1.50000610157116848545e-04
  +2.44730198174199602146e-02
  -1.50001445581041440401e-04
  -1.49995695242301219086e-04
  +2.40944679170841842553e-02
  -1.50001874003396758021e-04
  +2.43745002358917960128e-02
  -1.50001590466713639275e-04
  -1.50001252634342484857e-04
  +2.42102806481605953293e-02
  -1.49996866948823661964e-04
  +2.42642207411982585574e-02
  -1.50002611057671603060e-04
</dep>
<dep V2.It time>
  -1.50073303446382548239e-04
  -1.50073355627674685960e-04
  -1.50073356252454590421e-04
  -1.50073358080200661233e-04
  -1.50073362537470473806e-04
  -1.50073372156551125165e-04
  -1.50073390374539115738e-04
  -1.50073417857389583780e-04
  -1.50073438293841485191e-04
  -1.50073626706378007202e-04
  -1.50076808309926198982e-04
  -1.46872209804920763818e-04
  +2.48997999291821446588e-02
  +2.40726569303772904018e-02
  -1.40506736511303645387e-03
  +2.58845811929290722797e-02
  -1.63126674646147870607e-03
  +2.46276900546148376503e-02
  +2.45502102200322140646e-02
  -1.41414734110612699824e-03
  +2.59321581420879111735e-02
  -1.67119685591851988016e-03
  +2.41668110037856487260e-02
  +2.48385601767646957416e-02
  -1.42436742713603764487e-03
  +2.58795524925544452588e-02
  -1.72273827787396138778e-03
  +2.27064495081998780901e-02
  +2.50458475812576457364e-02
  -1.43585218036486328419e-03
  +2.58145464534410007396e-02
  -1.79410495083063420418e-03
  +1.48267069314040244796e-03
  +2.52076080880547781504e-02
  -1.44871622354565687818e-03
  +2.57430633782858818426e-02
  -1.90090983931455806411e-03
  -3.80820069412370250123e-04
  +2.53403580334980692290e-02
  -1.46309478928326533453e-03
  +2.56637625470142460848e-02
  -2.07378908112210852410e-03
  -1.35347011076553808140e-03
  +2.54527474108341908443e-02
  -1.47916829999169066601e-03
  +2.55748229843332577915e-02
  -2.37225040165972567152e-03
  -1.35844053483447427255e-03
  +2.55505234432522633503e-02
  -1.49716281434098680281e-03
  +2.54732528652534470637e-02
  -2.90734309039917399042e-03
  -1.36399122749789741826e-03
  +2.56367744850339862595e-02
  -1.51730632269728160644e-03
  +2.53555027436900143334e-02
  -1.48402733540204550579e-03
  -1.37025621921921594848e-03
  +2.57141538994791439554e-02
  -1.54007389457721036163e-03
  +2.52149259008539149141e-02
  +2.27733747260917162485e-04
  -1.37729619114631759991e-03
  +2.57840866476375142613e-02
  -1.56592668944505880591e-03
  +2.50411298962078636421e-02
  +2.34690382795899148138e-02
  -1.38519660308195763365e-03
  +2.58478813064736238914e-02
  -1.59581649406092054844e-03
  +2.48133032182982597724e-02
  +2.42938062236646157288e-02
  -1.39406621591401866378e-03
  +2.59064946193081312165e-02
  -1.63135247160058061144e-03
  +2.44821252515024130603e-02
  +2.46749582086252181035e-02
  -1.40399897384558061675e-03
  +2.59166156054613447401e-02
  -1.67556841808215797873e-03
  +2.38667345646102896373e-02
  +2.49256301499721881487e-02
  -1.41509639120408065027e-03
  +2.58551746322076003715e-02
  -1.73388250481525812985e-03
  +2.46125144477590948253e-03
  +2.51124978351802766174e-02
  -1.42747977499472350482e-03
  +2.57878523022837709278e-02
  -1.81671091699258865915e-03
  +8.20804564612002507222e-04
  +2.52615261947946902199e-02
  -1.44128129425983783629e-03
  +2.57135476012841507343e-02
  -1.94449918063968260618e-03
  -1.21437272772081114938e-03
  +2.53856100521090109756e-02
  -1.45664051564700983143e-03
  +2.56307299561146749445e-02
  -2.15704351008405570411e-03
</dep>
<dep max.Vt time>
  +1.49999955148599095622e+01
  +1.49999955149251444908e+01
  +1.49999955149531238874e+01
  +1.49999955150144970162e+01
  +1.49999955150483028632e+01
  +1.49999955150889938693e+01
  +1.49999955151316655133e+01
  +1.49999955151557617938e+01
  +1.49999955151957475863e+01
  +1.49999955152432917771e+01
  +1.49999955151751631632e+01
  +1.49999957244959212233e+01
  +1.49481100463607159412e+01
  +1.49041080958677749635e+01
  +1.48278045749447127122e+01
  +1.47731077741274940962e+01
  +1.47171491579280857565e+01
  +1.46437061366882215196e+01
  +1.46010595646082368404e+01
  +1.45285208768570210935e+01
  +1.44737961692113312751e+01
  +1.44211174739722363114e+01
  +1.43480827390756715545e+01
  +1.43067541211383044697e+01
  +1.42378428430983312580e+01
  +1.41831143572956861476e+01
  +1.41335925552319121579e+01
  +1.40609761494989395914e+01
  +1.40209258717260407678e+01
  +1.39555111247499041838e+01
  +1.39008004836315883779e+01
  +1.38543180979958080457e+01
  +1.37821153968991723104e+01
  +1.37433198675227856711e+01
  +1.36812718230761358740e+01
  +1.36266019067678048060e+01
  +1.35830432254849569063e+01
  +1.35114629375833494862e+01
  +1.34736874623225215686e+01
  +1.34148826308479058866e+01
  +1.33602748646741069649e+01
  +1.33195296932786675370e+01
  +1.32497102350201672039e+01
  +1.32117905310802150609e+01
  +1.31561085123807952613e+01
  +1.31015835179618704842e+01
  +1.30635451872361620929e+01
  +1.29955881234249659428e+01
  +1.29573944221521788478e+01
  +1.29047240949942381150e+01
  +1.28502967753026151598e+01
  +1.28148646933411267668e+01
  +1.27487157551249570275e+01
  +1.27102753214662644865e+01
  +1.26605052301657803326e+01
  +1.26061945086358928592e+01
  +1.25725695011302605053e+01
  +1.25088770735367784681e+01
  +1.24702160318392643035e+01
  +1.24232421453301657976e+01
  +1.23690616609328074560e+01
  +1.23365074469551139202e+01
  +1.22758619647746041181e+01
  +1.22370068156550910743e+01
  +1.21927266036149273276e+01
  +1.21386921154030016368e+01
  +1.21071595350367573474e+01
  +1.20494703763376698191e+01
  +1.20104438227103820225e+01
  +1.19687583914254425110e+01
  +1.19148842529744918295e+01
  +1.18843374144510764978e+01
  +1.18295038942363781587e+01
  +1.17903284752728136908e+01
  +1.17511428512596065588e+01
  +1.16974418431507398708e+01
  +1.16678514793162921848e+01
  +1.16157744507658975408e+01
  +1.15764703226092322552e+01
  +1.15396959980309201654e+01
  +1.14861779073971135290e+01
  +1.14575160079762206067e+01
  +1.14080982470585610145e+01
  +1.13686850572627928813e+01
  +1.13342348268227102182e+01
  +1.12809082600758561199e+01
  +1.12531495898005093892e+01
  +1.12062975253918999385e+01
  +1.11667931629562087181e+01
  +1.11345829059489140889e+01
  +1.10814385145215936745e+01
  +1.10545757967415916312e+01
  +1.10101987204614495397e+01
  +1.09706206498490956847e+01
  +1.09405704542675739077e+01
  +1.08879946800052156419e+01
  +1.08616240007338458184e+01
  +1.08196355819086953431e+01
  +1.07799994495241975301e+01
  +1.07520331575486718378e+01
</dep>
<dep _net6.Vt time>
  +1.49989867025521110833e+01
  +1.49989867022332443725e+01
  +1.49989867008741484256e+01
  +1.49989866975603440835e+01
  +1.49989866896920176487e+01
  +1.49989866731428751478e+01
  +1.49989866433315430783e+01
  +1.49989866028413185717e+01
  +1.49989865886379156734e+01
  +1.49989863470660313993e+01
  +1.49989811230048637469e+01
  +1.50077498766538397490e+01
  +2.17526797510338134600e+01
  +1.58527841267732370056e+01
  +1.33307810826967294560e+01
  +1.76401147335142027828e+01
  +9.86384929147561351215e+00
  +2.18431350766088279158e+01
  +1.59393717212908381242e+01
  +1.31604139168330576126e+01
  +1.79100582549421112333e+01
  +9.38223557462486112968e+00
  +2.13536777087642413164e+01
  +1.60348779783383186270e+01
  +1.29723542665321271983e+01
  +1.82078535622972594865e+01
  +8.89511479535778981642e+00
  +1.96648841047258393644e+01
  +1.61404563279663193498e+01
  +1.27646554244830827685e+01
  +1.85359814629740533576e+01
  +8.44406440589987283829e+00
  +1.65845970056248503965e+01
  +1.62567909746348782107e+01
  +1.25357852211969600376e+01
  +1.88960602449344534648e+01
  +8.11752640284432835927e+00
  +1.44018588664822999590e+01
  +1.63852274681649348054e+01
  +1.22834323301150263319e+01
  +1.92899023817066783693e+01
  +8.09309593972094987180e+00
  +1.40323537719121471667e+01
  +1.65266582490751972045e+01
  +1.20054804677383604172e+01
  +1.97173671786342552537e+01
  +8.72368723087939201832e+00
  +1.39339564604606476195e+01
  +1.66829830460709978013e+01
  +1.16988981308750332744e+01
  +2.01767381912219363471e+01
  +1.07116511187170964092e+01
  +1.38253330055018981426e+01
  +1.68552393487342513367e+01
  +1.13620209551162218986e+01
  +2.06555029770520448551e+01
  +1.36199848874223050643e+01
  +1.37055292417968637153e+01
  +1.70455002057344024990e+01
  +1.09917190146761765135e+01
  +2.11339372541978640641e+01
  +1.55348577603835007466e+01
  +1.35734669292071590263e+01
  +1.72551060661368182991e+01
  +1.05873929564983182416e+01
  +2.15601740273447788354e+01
  +1.58033941876234500512e+01
  +1.34278571992708730676e+01
  +1.74861005866494743088e+01
  +1.01493270766114083159e+01
  +2.18335069972275555017e+01
  +1.58850347245356591230e+01
  +1.32672985901550717358e+01
  +1.77407766337298404835e+01
  +9.68126885842295159534e+00
  +2.17475716313713789418e+01
  +1.59750438755246495504e+01
  +1.30900917803307113019e+01
  +1.80215432974814078193e+01
  +9.19368392508075693570e+00
  +2.08936335039853346984e+01
  +1.60743911627987863255e+01
  +1.28946189495977865391e+01
  +1.83307253010072201960e+01
  +8.71354880416892818573e+00
  +1.84819883709469152677e+01
  +1.61839590558902628459e+01
  +1.26790941896935613897e+01
  +1.86706844706676342582e+01
  +8.29665784463864497411e+00
  +1.55690800796964694541e+01
  +1.63046915955779248009e+01
  +1.24414567184398503485e+01
  +1.90435827263425991873e+01
  +8.05820809053703612790e+00
  +1.40937735878820369351e+01
  +1.64379868805384248276e+01
  +1.21797497079457563984e+01
  +1.94508668689046331224e+01
  +8.23041491025082549982e+00
</dep>
<dep AGND.Vt time>
  +1.50000000000000000000e+01
  +1.50000000000000000000e+01
  +1.50000000000000000000e+01
  +1.50000000000000000000e+01
  +1.50000000000000000000e+01
  +1.50000000000000000000e+01
  +1.50000000000000000000e+01
  +1.50000000000000000000e+01
  +1.50000000000000000000e+01
  +1.50000000000000000000e+01
  +1.50000000000000000000e+01
  +1.49999999999999982236e+01
  +1.50000000000000000000e+01
  +1.50000000000000000000e+01
  +1.50000000000000000000e+01
  +1.50000000000000017764e+01
  +1.50000000000000000000e+01
  +1.50000000000000017764e+01
  +1.50000000000000000000e+01
  +1.50000000000000000000e+01
  +1.50000000000000000000e+01
  +1.49999999999999982236e+01
  +1.50000000000000000000e+01
  +1.50000000000000000000e+01
  +1.50000000000000000000e+01
  +1.50000000000000000000e+01
  +1.50000000000000000000e+01
  +1.49999999999999982236e+01
  +1.50000000000000000000e+01
  +1.50000000000000000000e+01
  +1.50000000000000000000e+01
  +1.50000000000000000000e+01
  +1.50000000000000035527e+01
  +1.50000000000000000000e+01
  +1.49999999999999982236e+01
  +1.50000000000000000000e+01
  +1.50000000000000000000e+01
  +1.50000000000000017764e+01
  +1.50000000000000000000e+01
  +1.49999999999999964473e+01
  +1.50000000000000000000e+01
  +1.49999999999999982236e+01
  +1.50000000000000017764e+01
  +1.50000000000000000000e+01
  +1.50000000000000000000e+01
  +1.49999999999999982236e+01
  +1.50000000000000000000e+01
  +1.50000000000000000000e+01
  +1.50000000000000000000e+01
  +1.50000000000000000000e+01
  +1.50000000000000000000e+01
  +1.50000000000000035527e+01
  +1.50000000000000000000e+01
  +1.50000000000000000000e+01
  +1.50000000000000000000e+01
  +1.50000000000000017764e+01
  +1.50000000000000000000e+01
  +1.50000000000000000000e+01
  +1.50000000000000000000e+01
  +1.50000000000000000000e+01
  +1.50000000000000000000e+01
  +1.49999999999999982236e+01
  +1.50000000000000000000e+01
  +1.50000000000000000000e+01
  +1.50000000000000000000e+01
  +1.50000000000000017764e+01
  +1.49999999999999964473e+01
  +1.50000000000000000000e+01
  +1.50000000000000000000e+01
  +1.50000000000000000000e+01
  +1.50000000000000000000e+01
  +1.50000000000000000000e+01
  +1.50000000000000000000e+01
  +1.50000000000000035527e+01
  +1.50000000000000000000e+01
  +1.49999999999999964473e+01
  +1.50000000000000000000e+01
  +1.50000000000000000000e+01
  +1.50000000000000000000e+01
  +1.50000000000000000000e+01
  +1.50000000000000000000e+01
  +1.50000000000000000000e+01
  +1.50000000000000000000e+01
  +1.50000000000000000000e+01
  +1.50000000000000000000e+01
  +1.50000000000000017764e+01
  +1.50000000000000000000e+01
  +1.50000000000000000000e+01
  +1.50000000000000000000e+01
  +1.50000000000000000000e+01
  +1.50000000000000000000e+01
  +1.50000000000000000000e+01
  +1.50000000000000000000e+01
  +1.50000000000000000000e+01
  +1.50000000000000000000e+01
  +1.49999999999999982236e+01
  +1.50000000000000000000e+01
  +1.50000000000000000000e+01
  +1.50000000000000000000e+01
  +1.49999999999999982236e+01
</dep>
<dep generated.Vt time>
  +1.49995725890692117588e+01
  +1.49995725875654599690e+01
  +1.49995725811155455887e+01
  +1.49995725654585658759e+01
  +1.49995725283223073632e+01
  +1.49995724503355294388e+01
  +1.49995723101462523630e+01
  +1.49995721206695673544e+01
  +1.49995720579969038511e+01
  +1.49995709361469682364e+01
  +1.49995463647021107789e+01
  +1.50415358418683169361e+01
  +2.88015706291389506077e+01
  +2.88012395425206477739e+01
  +1.19744506953365670299e+00
  +2.88030774799697049104e+01
  +1.19765001693629069557e+00
  +2.88010942389631736660e+01
  +2.88017629512449460094e+01
  +1.19733456314740194237e+00
  +2.88031095161842323193e+01
  +1.19781690731755618984e+00
  +2.88002564267538936349e+01
  +2.88020710362801892757e+01
  +1.19724146979415912995e+00
  +2.88030351637074204518e+01
  +1.19802103770412804451e+00
  +2.87978855673649754010e+01
  +2.88022878040276779643e+01
  +1.19716210871154338236e+00
  +2.88029453998323745623e+01
  +1.19828336272641333693e+00
  +1.95507764291641663590e+01
  +2.88024534702653340901e+01
  +1.19709406285083641563e+00
  +2.88028460029247526109e+01
  +1.19864364855603655613e+00
  +6.78447184219302101837e+00
  +2.88025864561827482646e+01
  +1.19703565575727610693e+00
  +2.88027348259788915641e+01
  +1.19918994185574412370e+00
  +1.19954786935894142097e+00
  +2.88026963732400460572e+01
  +1.19702577460473458260e+00
  +2.88026089741345039386e+01
  +1.20017472356925125609e+00
  +1.19855388996094180953e+00
  +2.88027894374126702814e+01
  +1.19710834818268496704e+00
  +2.88024632907192277287e+01
  +1.23343742991818894339e+00
  +1.19812806865240584209e+00
  +2.88028690262982500769e+01
  +1.19719948038904355769e+00
  +2.88022907757967097098e+01
  +1.25863806733032319585e+01
  +1.19785763819517843132e+00
  +2.88029378895164533958e+01
  +1.19730104582761587295e+00
