<Qucs Dataset 0.0.19>
<indep time 11>
  +0.00000000000000000000e+00
  +1.00000000000000004792e-04
  +2.00000000000000009584e-04
  +3.00000000000000027929e-04
  +4.00000000000000019169e-04
  +5.00000000000000010408e-04
  +6.00000000000000055858e-04
  +6.99999999999999992888e-04
  +8.00000000000000038337e-04
  +9.00000000000000083787e-04
  +1.00000000000000002082e-03
</indep>
<dep V1.It time>
  -1.07433785975794005019e-03
  -1.07433785975537439417e-03
  -1.07433785975538089938e-03
  -1.07433785975710846712e-03
  -1.07433785975922721501e-03
  -1.07433785975849863115e-03
  -1.07433785975967065369e-03
  -1.07433785976011279134e-03
  -1.07433785976070021208e-03
  -1.07433785975847217661e-03
  -1.07433785975570464215e-03
</dep>
<dep step3.Vt time>
  +7.75574599550075460819e-01
  +7.75574599549993637382e-01
  +7.75574599549995413739e-01
  +7.75574599550052701247e-01
  +7.75574599550119203606e-01
  +7.75574599550094778699e-01
  +7.75574599550131305037e-01
  +7.75574599550144738735e-01
  +7.75574599550161836170e-01
  +7.75574599550089449629e-01
  +7.75574599550001519965e-01
</dep>
<dep Output.Vt time>
  +1.25662140242059439110e+00
  +1.25662140244625386565e+00
  +1.25662140244621078899e+00
  +1.25662140242890196795e+00
  +1.25662140240778463784e+00
  +1.25662140241497533033e+00
  +1.25662140240329400775e+00
  +1.25662140239886022108e+00
  +1.25662140239297692723e+00
  +1.25662140241525954742e+00
  +1.25662140244299913583e+00
</dep>
<dep _net0.Vt time>
  +1.20000000000000000000e+01
  +1.20000000000000000000e+01
  +1.20000000000000000000e+01
  +1.20000000000000000000e+01
  +1.20000000000000000000e+01
  +1.20000000000000000000e+01
  +1.20000000000000000000e+01
  +1.20000000000000000000e+01
  +1.20000000000000000000e+01
  +1.20000000000000000000e+01
  +1.20000000000000000000e+01
</dep>
<dep step2.Vt time>
  +9.35923533840240517989e-01
  +9.35923533840280263973e-01
  +9.35923533840503529824e-01
  +9.35923533840890775615e-01
  +9.35923533841189647653e-01
  +9.35923533841217403229e-01
  +9.35923533841129584587e-01
  +9.35923533840934740446e-01
  +9.35923533840596677535e-01
  +9.35923533840164578734e-01
  +9.35923533839875032569e-01
</dep>
<dep step1.Vt time>
  +1.09627246813040524209e+00
  +1.09627246813161582928e+00
  +1.09627246813373435685e+00
  +1.09627246813552003957e+00
  +1.09627246813353651511e+00
  +1.09627246813197176678e+00
  +1.09627246813086043353e+00
  +1.09627246812953837996e+00
  +1.09627246812735901216e+00
  +1.09627246812663337039e+00
  +1.09627246812837286782e+00
</dep>
